
T1530 002:049 SEGGER J-Link V4.28 Log File (0001ms, 2047ms total)
T1530 002:049 DLL Compiled: Jun 16 2011 17:41:05 (0001ms, 2047ms total)
T1530 002:049 Logging started @ 2015-06-15 23:24 (0001ms, 2047ms total)
T1530 002:050 JLINK_SetWarnOutHandler(...) (0001ms, 2048ms total)
T1530 002:051 JLINK_OpenEx(...)
Firmware: J-Link ARM V8 compiled Jun 16 2011 14:52:53
Hardware: V8.00
Feature(s): RDI,FlashDL,FlashBP,JFlash  returns O.K. (0645ms, 2049ms total)
T1530 002:696 JLINK_SetErrorOutHandler(...) (0000ms, 2694ms total)
T1530 002:698 JLINK_ExecCommand("ProjectFile = "C:\development\stm32IMU\test0.0\USER\JLinkSettings.ini"", ...)  returns 0x00 (0001ms, 2694ms total)
T1530 002:700 JLINK_ExecCommand("DisableConnectionTimeout", ...)  returns 0x00 (0000ms, 2695ms total)
T1530 002:702 JLINK_TIF_Select(JLINKARM_TIF_SWD)  returns 0x00 (0004ms, 2695ms total)
T1530 002:709 JLINK_SetSpeed(10000) (0003ms, 2699ms total)
T1530 002:712 JLINK_GetHardwareVersion()  returns 0x13880 (0000ms, 2702ms total)
T1530 002:712 JLINK_GetDLLVersion()  returns 42800 (0000ms, 2702ms total)
T1530 002:712 JLINK_GetFirmwareString(...) (0000ms, 2702ms total)
T1530 002:714 JLINK_GetDLLVersion()  returns 42800 (0000ms, 2702ms total)
T1530 002:714 JLINK_GetCompileDateTime() (0000ms, 2702ms total)
T1530 002:715 JLINK_GetFirmwareString(...) (0000ms, 2702ms total)
T1530 002:716 JLINK_GetHardwareVersion()  returns 0x13880 (0000ms, 2702ms total)
T1530 002:717 JLINK_GetId() >0x108 TIF>Found SWD-DP with ID 0x1BA01477 >0x33 TIF> >0x33 TIF> >0x35 TIF> >0x33 TIF> >0x33 TIF> >0x35 TIF> >0x33 TIF> >0x33 TIF> >0x35 TIF> >0x33 TIF> >0x33 TIF> >0x35 TIF> >0x33 TIF> >0x33 TIF> >0x35 TIF> >0x35 TIF> >0x35 TIF> >0x35 TIF> >0x33 TIF> >0x33 TIF> >0x33 TIF> >0x35 TIF> >0x35 TIF> >0x35 TIF> >0x35 TIF> >0x33 TIF> >0x33 TIF> >0x35 TIF> >0x35 TIF> >0x35 TIF> >0x35 TIF> >0x33 TIF> >0x33 TIF> >0x33 TIF> >0x35 TIF> >0x35 TIF> >0x35 TIF> >0x35 TIF> >0x33 TIF>
 >0x33 TIF>TPIU fitted. >0x35 TIF> >0x35 TIF> >0x35 TIF> >0x33 TIF> >0x33 TIF> >0x35 TIF> >0x35 TIF> >0x35 TIF> >0x33 TIF> >0x33 TIF> >0x35 TIF> >0x35 TIF> >0x35 TIF> >0x33 TIF> >0x33 TIF>  FPUnit: 6 code (BP) slots and 2 literal slots >0x35 TIF> >0x35 TIF> >0x35 TIF> >0x33 TIF> >0x33 TIF> >0x35 TIF> >0x35 TIF> >0x35 TIF> >0x33 TIF> >0x33 TIF> >0x35 TIF> >0x35 TIF> >0x35 TIF> >0x33 TIF> >0x33 TIF>Found Cortex-M3 r1p1, Little endian. >0x33 TIF>  returns 0x1BA01477 (0080ms, 2702ms total)
T1530 002:797 JLINK_GetDebugInfo(0x100) -- Value=0xE00FF003  returns 0x00 (0001ms, 2782ms total)
T1530 002:798 JLINK_ReadMem (0xE00FFFF0, 0x0010 Bytes, ...) -- CPU is running -- CPU_ReadMem(16 bytes @ 0xE00FFFF0) -- Data:  0D 00 00 00 10 00 00 00 05 00 00 00 B1 00 00 00  returns 0x00 (0004ms, 2783ms total)
T1530 002:802 JLINK_ReadMem (0xE00FFFD0, 0x0020 Bytes, ...) -- CPU is running -- CPU_ReadMem(32 bytes @ 0xE00FFFD0) -- Data:  00 00 00 00 00 00 00 00 00 00 00 00 00 00 00 00 ...  returns 0x00 (0001ms, 2787ms total)
T1530 002:803 JLINK_ReadMem (0xE00FF000, 0x0018 Bytes, ...) -- CPU is running -- CPU_ReadMem(24 bytes @ 0xE00FF000) -- Data:  03 F0 F0 FF 03 20 F0 FF 03 30 F0 FF 03 10 F0 FF ...  returns 0x00 (0001ms, 2788ms total)
T1530 002:804 JLINK_ReadMemU32(0xE000ED00, 0x0001 Items, ...) -- CPU is running -- CPU_ReadMem(4 bytes @ 0xE000ED00) -- Data:  31 C2 1F 41  returns 0x01 (0001ms, 2789ms total)
T1530 002:805 JLINK_SetResetType(JLINKARM_RESET_TYPE_NORMAL)  returns JLINKARM_RESET_TYPE_NORMAL (0000ms, 2790ms total)
T1530 002:805 JLINK_Reset() >0x108 TIF>Found SWD-DP with ID 0x1BA01477 >0x33 TIF> >0x33 TIF> >0x35 TIF> >0x33 TIF> >0x35 TIF> >0x33 TIF> >0x33 TIF> >0x35 TIF> >0x33 TIF> >0x33 TIF> >0x35 TIF> >0x33 TIF> >0x33 TIF> >0x35 TIF> >0x33 TIF> >0x33 TIF> >0x35 TIF> >0x35 TIF> >0x35 TIF> >0x35 TIF> >0x33 TIF> >0x33 TIF> >0x33 TIF> >0x35 TIF> >0x35 TIF> >0x35 TIF> >0x35 TIF> >0x33 TIF> >0x33 TIF> >0x35 TIF> >0x35 TIF> >0x35 TIF> >0x33 TIF> >0x33 TIF>TPIU fitted. >0x35 TIF> >0x35 TIF> >0x35 TIF> >0x33 TIF>
 >0x33 TIF> >0x35 TIF> >0x35 TIF> >0x35 TIF> >0x33 TIF> >0x33 TIF> >0x35 TIF> >0x35 TIF> >0x35 TIF> >0x33 TIF> >0x33 TIF>  FPUnit: 6 code (BP) slots and 2 literal slots >0x35 TIF> >0x35 TIF> >0x35 TIF> >0x33 TIF> >0x33 TIF> >0x35 TIF> >0x35 TIF> >0x35 TIF> >0x33 TIF> >0x33 TIF> >0x35 TIF> >0x35 TIF> >0x35 TIF> >0x33 TIF> >0x33 TIF>Found Cortex-M3 r1p1, Little endian. (0091ms, 2790ms total)
T1530 002:896 JLINK_ReadReg(R15)  returns 0x08000100 (0000ms, 2881ms total)
T1530 002:896 JLINK_ReadReg(XPSR)  returns 0x01000000 (0000ms, 2881ms total)
T1530 002:896 JLINK_ExecCommand("Device = STM32F103RB", ...)
                JLINK_ExecCommand("map ram 0x20000000 - 0x20004FFF", ...)  returns 0x00 (0000ms, 0000ms total)
                JLINK_AddMirrorAreaEx(Addr = 0x00000000, Size = 0x00000000) (0000ms, 0000ms total)
                returns 0x00 (0001ms, 2881ms total)
T1530 002:897 JLINK_Halt() >0x108 TIF>Found SWD-DP with ID 0x1BA01477 >0x33 TIF> >0x33 TIF> >0x35 TIF> >0x33 TIF> >0x35 TIF> >0x33 TIF> >0x33 TIF> >0x35 TIF> >0x33 TIF> >0x33 TIF> >0x35 TIF> >0x33 TIF> >0x33 TIF> >0x35 TIF> >0x33 TIF> >0x33 TIF> >0x35 TIF> >0x35 TIF> >0x35 TIF> >0x35 TIF> >0x33 TIF> >0x33 TIF> >0x33 TIF> >0x35 TIF> >0x35 TIF> >0x35 TIF> >0x35 TIF> >0x33 TIF> >0x33 TIF> >0x35 TIF> >0x35 TIF> >0x35 TIF> >0x33 TIF> >0x33 TIF>TPIU fitted. >0x35 TIF> >0x35 TIF> >0x35 TIF> >0x33 TIF>
 >0x33 TIF> >0x35 TIF> >0x35 TIF> >0x35 TIF> >0x33 TIF> >0x33 TIF> >0x35 TIF> >0x35 TIF> >0x35 TIF> >0x33 TIF> >0x33 TIF>  FPUnit: 6 code (BP) slots and 2 literal slots >0x35 TIF> >0x35 TIF> >0x35 TIF> >0x33 TIF> >0x33 TIF> >0x35 TIF> >0x35 TIF> >0x35 TIF> >0x33 TIF> >0x33 TIF> >0x35 TIF> >0x35 TIF> >0x35 TIF> >0x33 TIF> >0x33 TIF>Found Cortex-M3 r1p1, Little endian.  returns 0x00 (0069ms, 2882ms total)
T1530 002:966 JLINK_IsHalted()  returns TRUE (0000ms, 2951ms total)
T1530 002:966 JLINK_ReadMemU32(0xE000EDF0, 0x0001 Items, ...) -- CPU_ReadMem(4 bytes @ 0xE000EDF0) -- Data:  03 00 03 00  returns 0x01 (0002ms, 2951ms total)
T1530 002:968 JLINK_WriteU32(0xE000EDF0, 0xA05F0003) -- CPU_WriteMem(4 bytes @ 0xE000EDF0)  returns 0x00 (0001ms, 2953ms total)
T1530 002:969 JLINK_WriteU32(0xE000EDFC, 0x01000000) -- CPU_WriteMem(4 bytes @ 0xE000EDFC)  returns 0x00 (0001ms, 2954ms total)
T1530 002:970 JLINK_ReadMemU32(0xE0002000, 0x0001 Items, ...) -- CPU_ReadMem(4 bytes @ 0xE0002000) -- Data:  60 02 00 00  returns 0x01 (0001ms, 2955ms total)
T1530 002:971 JLINK_ReadMemU32(0xE0001000, 0x0001 Items, ...) -- CPU_ReadMem(4 bytes @ 0xE0001000) -- Data:  00 00 00 40  returns 0x01 (0001ms, 2956ms total)
T1530 002:972 JLINK_WriteU32(0xE0001028, 0x00000000) -- CPU_WriteMem(4 bytes @ 0xE0001028)  returns 0x00 (0001ms, 2957ms total)
T1530 002:973 JLINK_WriteU32(0xE0001038, 0x00000000) -- CPU_WriteMem(4 bytes @ 0xE0001038)  returns 0x00 (0001ms, 2958ms total)
T1530 002:974 JLINK_WriteU32(0xE0001048, 0x00000000) -- CPU_WriteMem(4 bytes @ 0xE0001048)  returns 0x00 (0001ms, 2959ms total)
T1530 002:975 JLINK_WriteU32(0xE0001058, 0x00000000) -- CPU_WriteMem(4 bytes @ 0xE0001058)  returns 0x00 (0001ms, 2960ms total)
T1530 002:978 JLINK_GetHWStatus(...)  returns 0x00 (0002ms, 2961ms total)
T1530 002:981 JLINK_GetNumBPUnits(Type = 0xFFFFFF00)  returns 0x06 (0000ms, 2963ms total)
T1530 002:981 JLINK_GetNumBPUnits(Type = 0xF0)  returns 0x2000 (0000ms, 2963ms total)
T1530 002:981 JLINK_GetNumWPUnits()  returns 0x04 (0000ms, 2963ms total)
T1530 002:983 JLINK_GetSpeed()  returns 0xFA0 (0000ms, 2963ms total)
T1530 002:984 JLINK_ReadMemU32(0xE000E004, 0x0001 Items, ...) -- CPU_ReadMem(4 bytes @ 0xE000E004) -- Data:  01 00 00 00  returns 0x01 (0001ms, 2963ms total)
T1530 002:985 JLINK_ReadMemU32(0xE000E004, 0x0001 Items, ...) -- CPU_ReadMem(4 bytes @ 0xE000E004) -- Data:  01 00 00 00  returns 0x01 (0001ms, 2964ms total)
T1530 002:986 JLINK_WriteMem(0xE0001000, 0x001C Bytes, ...) -- Data:  01 00 00 00 00 00 00 00 00 00 00 00 00 00 00 00 ... -- CPU_WriteMem(28 bytes @ 0xE0001000)  returns 0x1C (0001ms, 2965ms total)
T1530 002:987 JLINK_ReadMem (0xE0001000, 0x001C Bytes, ...) -- CPU_ReadMem(28 bytes @ 0xE0001000) -- Data:  01 00 00 40 00 00 00 00 00 00 00 00 00 00 00 00 ...  returns 0x00 (0001ms, 2966ms total)
T1530 002:988 JLINK_ReadReg(R15)  returns 0x08000100 (0000ms, 2967ms total)
T1530 002:988 JLINK_ReadReg(XPSR)  returns 0x01000000 (0000ms, 2967ms total)
T1530 003:150 JLINK_SetResetType(JLINKARM_RESET_TYPE_NORMAL)  returns JLINKARM_RESET_TYPE_NORMAL (0001ms, 2967ms total)
T1530 003:151 JLINK_Reset() >0x108 TIF>Found SWD-DP with ID 0x1BA01477 >0x33 TIF> >0x33 TIF> >0x35 TIF> >0x33 TIF> >0x35 TIF> >0x33 TIF> >0x33 TIF> >0x35 TIF> >0x33 TIF> >0x33 TIF> >0x35 TIF> >0x33 TIF> >0x33 TIF> >0x35 TIF> >0x33 TIF> >0x33 TIF> >0x35 TIF> >0x35 TIF> >0x35 TIF> >0x35 TIF> >0x33 TIF> >0x33 TIF> >0x33 TIF> >0x35 TIF> >0x35 TIF> >0x35 TIF> >0x35 TIF> >0x33 TIF> >0x33 TIF> >0x35 TIF> >0x35 TIF> >0x35 TIF> >0x33 TIF> >0x33 TIF>TPIU fitted. >0x35 TIF> >0x35 TIF> >0x35 TIF> >0x33 TIF>
 >0x33 TIF> >0x35 TIF> >0x35 TIF> >0x35 TIF> >0x33 TIF> >0x33 TIF> >0x35 TIF> >0x35 TIF> >0x35 TIF> >0x33 TIF> >0x33 TIF>  FPUnit: 6 code (BP) slots and 2 literal slots >0x35 TIF> >0x35 TIF> >0x35 TIF> >0x33 TIF> >0x33 TIF> >0x35 TIF> >0x35 TIF> >0x35 TIF> >0x33 TIF> >0x33 TIF> >0x35 TIF> >0x35 TIF> >0x35 TIF> >0x33 TIF> >0x33 TIF>Found Cortex-M3 r1p1, Little endian. (0089ms, 2968ms total)
T1530 003:240 JLINK_ReadReg(R15)  returns 0x08000100 (0000ms, 3057ms total)
T1530 003:240 JLINK_ReadReg(XPSR)  returns 0x01000000 (0000ms, 3057ms total)
T1530 003:240 JLINK_ReadReg(R0)  returns 0x40013800 (0000ms, 3057ms total)
T1530 003:240 JLINK_ReadReg(R1)  returns 0x00000000 (0000ms, 3057ms total)
T1530 003:241 JLINK_ReadReg(R2)  returns 0x00000000 (0000ms, 3058ms total)
T1530 003:241 JLINK_ReadReg(R3)  returns 0x40013800 (0000ms, 3058ms total)
T1530 003:241 JLINK_ReadReg(R4)  returns 0x00000000 (0000ms, 3058ms total)
T1530 003:241 JLINK_ReadReg(R5)  returns 0x00000000 (0000ms, 3058ms total)
T1530 003:241 JLINK_ReadReg(R6)  returns 0x00000000 (0000ms, 3058ms total)
T1530 003:241 JLINK_ReadReg(R7)  returns 0x00000000 (0001ms, 3058ms total)
T1530 003:242 JLINK_ReadReg(R8)  returns 0x00000000 (0000ms, 3059ms total)
T1530 003:242 JLINK_ReadReg(R9)  returns 0x00000000 (0000ms, 3059ms total)
T1530 003:242 JLINK_ReadReg(R10)  returns 0x00000000 (0000ms, 3059ms total)
T1530 003:242 JLINK_ReadReg(R11)  returns 0x00000000 (0000ms, 3059ms total)
T1530 003:243 JLINK_ReadReg(R12)  returns 0x00000400 (0000ms, 3060ms total)
T1530 003:243 JLINK_ReadReg(R13)  returns 0x20000570 (0000ms, 3060ms total)
T1530 003:243 JLINK_ReadReg(R14)  returns 0xFFFFFFFF (0000ms, 3060ms total)
T1530 003:243 JLINK_ReadReg(R15)  returns 0x08000100 (0000ms, 3060ms total)
T1530 003:243 JLINK_ReadReg(XPSR)  returns 0x01000000 (0000ms, 3060ms total)
T1530 003:243 JLINK_ReadReg(MSP)  returns 0x20000570 (0001ms, 3060ms total)
T1530 003:244 JLINK_ReadReg(PSP)  returns 0xEA827340 (0000ms, 3061ms total)
T1530 003:244 JLINK_ReadReg(CFBP)  returns 0x00000000 (0000ms, 3061ms total)
T1530 003:244 JLINK_WriteReg(R0, 0x40013800)  returns 0x00 (0000ms, 3061ms total)
T1530 003:244 JLINK_WriteReg(R1, 0x00000000)  returns 0x00 (0001ms, 3061ms total)
T1530 003:245 JLINK_WriteReg(R2, 0x00000000)  returns 0x00 (0000ms, 3062ms total)
T1530 003:245 JLINK_WriteReg(R3, 0x40013800)  returns 0x00 (0000ms, 3062ms total)
T1530 003:245 JLINK_WriteReg(R4, 0x00000000)  returns 0x00 (0000ms, 3062ms total)
T1530 003:245 JLINK_WriteReg(R5, 0x00000000)  returns 0x00 (0000ms, 3062ms total)
T1530 003:245 JLINK_WriteReg(R6, 0x00000000)  returns 0x00 (0000ms, 3062ms total)
T1530 003:245 JLINK_WriteReg(R7, 0x00000000)  returns 0x00 (0001ms, 3062ms total)
T1530 003:246 JLINK_WriteReg(R8, 0x00000000)  returns 0x00 (0000ms, 3063ms total)
T1530 003:246 JLINK_WriteReg(R9, 0x00000000)  returns 0x00 (0000ms, 3063ms total)
T1530 003:246 JLINK_WriteReg(R10, 0x00000000)  returns 0x00 (0000ms, 3063ms total)
T1530 003:246 JLINK_WriteReg(R11, 0x00000000)  returns 0x00 (0000ms, 3063ms total)
T1530 003:246 JLINK_WriteReg(R12, 0x00000400)  returns 0x00 (0001ms, 3063ms total)
T1530 003:247 JLINK_WriteReg(R13, 0x20000570)  returns 0x00 (0000ms, 3064ms total)
T1530 003:247 JLINK_WriteReg(R14, 0xFFFFFFFF)  returns 0x00 (0000ms, 3064ms total)
T1530 003:247 JLINK_WriteReg(R15, 0x08000100)  returns 0x00 (0000ms, 3064ms total)
T1530 003:247 JLINK_WriteReg(XPSR, 0x01000000)  returns 0x00 (0000ms, 3064ms total)
T1530 003:247 JLINK_WriteReg(MSP, 0x20000570)  returns 0x00 (0000ms, 3064ms total)
T1530 003:247 JLINK_WriteReg(PSP, 0xEA827340)  returns 0x00 (0001ms, 3064ms total)
T1530 003:248 JLINK_WriteReg(CFBP, 0x00000000)  returns 0x00 (0000ms, 3065ms total)
T1530 003:248 JLINK_ReadReg(R0)  returns 0x40013800 (0000ms, 3065ms total)
T1530 003:248 JLINK_ReadReg(R1)  returns 0x00000000 (0001ms, 3065ms total)
T1530 003:249 JLINK_ReadReg(R2)  returns 0x00000000 (0000ms, 3066ms total)
T1530 003:249 JLINK_ReadReg(R3)  returns 0x40013800 (0000ms, 3066ms total)
T1530 003:249 JLINK_ReadReg(R4)  returns 0x00000000 (0000ms, 3066ms total)
T1530 003:249 JLINK_ReadReg(R5)  returns 0x00000000 (0000ms, 3066ms total)
T1530 003:249 JLINK_ReadReg(R6)  returns 0x00000000 (0000ms, 3066ms total)
T1530 003:250 JLINK_ReadReg(R7)  returns 0x00000000 (0000ms, 3067ms total)
T1530 003:250 JLINK_ReadReg(R8)  returns 0x00000000 (0000ms, 3067ms total)
T1530 003:250 JLINK_ReadReg(R9)  returns 0x00000000 (0000ms, 3067ms total)
T1530 003:250 JLINK_ReadReg(R10)  returns 0x00000000 (0000ms, 3067ms total)
T1530 003:250 JLINK_ReadReg(R11)  returns 0x00000000 (0000ms, 3067ms total)
T1530 003:250 JLINK_ReadReg(R12)  returns 0x00000400 (0001ms, 3067ms total)
T1530 003:251 JLINK_ReadReg(R13)  returns 0x20000570 (0000ms, 3068ms total)
T1530 003:251 JLINK_ReadReg(R14)  returns 0xFFFFFFFF (0000ms, 3068ms total)
T1530 003:251 JLINK_ReadReg(R15)  returns 0x08000100 (0000ms, 3068ms total)
T1530 003:251 JLINK_ReadReg(XPSR)  returns 0x01000000 (0000ms, 3068ms total)
T1530 003:251 JLINK_ReadReg(MSP)  returns 0x20000570 (0000ms, 3068ms total)
T1530 003:251 JLINK_ReadReg(PSP)  returns 0xEA827340 (0001ms, 3068ms total)
T1530 003:252 JLINK_ReadReg(CFBP)  returns 0x00000000 (0000ms, 3069ms total)
T1530 003:252 JLINK_ReadMemU32(0xE0001004, 0x0001 Items, ...) -- CPU_ReadMem(4 bytes @ 0xE0001004) -- Data:  01 00 00 40  returns 0x01 (0002ms, 3069ms total)
T1530 003:256 JLINK_ReadMem (0x08000100, 0x003C Bytes, ...) -- CPU_ReadMem(64 bytes @ 0x08000100) -- Updating C cache (64 bytes @ 0x08000100) -- Read from C cache (60 bytes @ 0x08000100) -- Data:  06 48 80 47 06 48 00 47 FE E7 FE E7 FE E7 FE E7 ...  returns 0x00 (0002ms, 3071ms total)
T1530 006:011 JLINK_ReadMem (0x2000004E, 0x0002 Bytes, ...) -- CPU_ReadMem(64 bytes @ 0x20000040) -- Updating C cache (64 bytes @ 0x20000040) -- Read from C cache (2 bytes @ 0x2000004E) -- Data:  FF FF  returns 0x00 (0003ms, 3073ms total)
T1530 006:014 JLINK_ReadMem (0x20000050, 0x0002 Bytes, ...) -- Read from C cache (2 bytes @ 0x20000050) -- Data:  FF FF  returns 0x00 (0001ms, 3076ms total)
T1530 006:015 JLINK_ReadMem (0x20000052, 0x0002 Bytes, ...) -- Read from C cache (2 bytes @ 0x20000052) -- Data:  FF FF  returns 0x00 (0001ms, 3077ms total)
T1530 007:922 JLINK_WriteReg(R0, 0x40013800)  returns 0x00 (0002ms, 3078ms total)
T1530 007:924 JLINK_WriteReg(R1, 0x00000000)  returns 0x00 (0001ms, 3080ms total)
T1530 007:925 JLINK_WriteReg(R2, 0x00000000)  returns 0x00 (0000ms, 3081ms total)
T1530 007:925 JLINK_WriteReg(R3, 0x40013800)  returns 0x00 (0000ms, 3081ms total)
T1530 007:925 JLINK_WriteReg(R4, 0x00000000)  returns 0x00 (0000ms, 3081ms total)
T1530 007:925 JLINK_WriteReg(R5, 0x00000000)  returns 0x00 (0000ms, 3081ms total)
T1530 007:925 JLINK_WriteReg(R6, 0x00000000)  returns 0x00 (0000ms, 3081ms total)
T1530 007:925 JLINK_WriteReg(R7, 0x00000000)  returns 0x00 (0001ms, 3081ms total)
T1530 007:926 JLINK_WriteReg(R8, 0x00000000)  returns 0x00 (0000ms, 3082ms total)
T1530 007:926 JLINK_WriteReg(R9, 0x00000000)  returns 0x00 (0000ms, 3082ms total)
T1530 007:926 JLINK_WriteReg(R10, 0x00000000)  returns 0x00 (0000ms, 3082ms total)
T1530 007:926 JLINK_WriteReg(R11, 0x00000000)  returns 0x00 (0000ms, 3082ms total)
T1530 007:926 JLINK_WriteReg(R12, 0x00000400)  returns 0x00 (0001ms, 3082ms total)
T1530 007:927 JLINK_WriteReg(R13, 0x20000570)  returns 0x00 (0000ms, 3083ms total)
T1530 007:927 JLINK_WriteReg(R14, 0xFFFFFFFF)  returns 0x00 (0000ms, 3083ms total)
T1530 007:927 JLINK_WriteReg(R15, 0x08000100)  returns 0x00 (0000ms, 3083ms total)
T1530 007:927 JLINK_WriteReg(XPSR, 0x01000000)  returns 0x00 (0000ms, 3083ms total)
T1530 007:927 JLINK_WriteReg(MSP, 0x20000570)  returns 0x00 (0000ms, 3083ms total)
T1530 007:927 JLINK_WriteReg(PSP, 0xEA827340)  returns 0x00 (0001ms, 3083ms total)
T1530 007:928 JLINK_WriteReg(CFBP, 0x00000000)  returns 0x00 (0000ms, 3084ms total)
T1530 007:928 JLINK_ReadReg(R0)  returns 0x40013800 (0000ms, 3084ms total)
T1530 007:928 JLINK_ReadReg(R1)  returns 0x00000000 (0000ms, 3084ms total)
T1530 007:928 JLINK_ReadReg(R2)  returns 0x00000000 (0000ms, 3084ms total)
T1530 007:928 JLINK_ReadReg(R3)  returns 0x40013800 (0001ms, 3084ms total)
T1530 007:929 JLINK_ReadReg(R4)  returns 0x00000000 (0000ms, 3085ms total)
T1530 007:929 JLINK_ReadReg(R5)  returns 0x00000000 (0000ms, 3085ms total)
T1530 007:929 JLINK_ReadReg(R6)  returns 0x00000000 (0000ms, 3085ms total)
T1530 007:929 JLINK_ReadReg(R7)  returns 0x00000000 (0000ms, 3085ms total)
T1530 007:929 JLINK_ReadReg(R8)  returns 0x00000000 (0000ms, 3085ms total)
T1530 007:929 JLINK_ReadReg(R9)  returns 0x00000000 (0001ms, 3085ms total)
T1530 007:930 JLINK_ReadReg(R10)  returns 0x00000000 (0000ms, 3086ms total)
T1530 007:930 JLINK_ReadReg(R11)  returns 0x00000000 (0000ms, 3086ms total)
T1530 007:930 JLINK_ReadReg(R12)  returns 0x00000400 (0000ms, 3086ms total)
T1530 007:930 JLINK_ReadReg(R13)  returns 0x20000570 (0000ms, 3086ms total)
T1530 007:930 JLINK_ReadReg(R14)  returns 0xFFFFFFFF (0000ms, 3086ms total)
T1530 007:931 JLINK_ReadReg(R15)  returns 0x08000100 (0000ms, 3087ms total)
T1530 007:931 JLINK_ReadReg(XPSR)  returns 0x01000000 (0000ms, 3087ms total)
T1530 007:931 JLINK_ReadReg(MSP)  returns 0x20000570 (0000ms, 3087ms total)
T1530 007:931 JLINK_ReadReg(PSP)  returns 0xEA827340 (0000ms, 3087ms total)
T1530 007:931 JLINK_ReadReg(CFBP)  returns 0x00000000 (0000ms, 3087ms total)
T1530 007:931 JLINK_ReadMemU32(0xE0001004, 0x0001 Items, ...) -- CPU_ReadMem(4 bytes @ 0xE0001004) -- Data:  01 00 00 40  returns 0x01 (0001ms, 3087ms total)
T21E4 012:971 JLINK_SetBPEx(Addr = 0x0800115C, Type = 0xFFFFFFF2)  returns 0x00000001 (0002ms, 3088ms total)
T21E4 012:973 JLINK_SetBPEx(Addr = 0x08003954, Type = 0xFFFFFFF2)  returns 0x00000002 (0000ms, 3090ms total)
T21E4 012:973 JLINK_SetBPEx(Addr = 0x0800397C, Type = 0xFFFFFFF2)  returns 0x00000003 (0001ms, 3090ms total)
T21E4 012:974 JLINK_SetBPEx(Addr = 0x0800016C, Type = 0xFFFFFFF2)  returns 0x00000004 (0000ms, 3091ms total)
T21E4 012:974 JLINK_Go() -- CPU_WriteMem(4 bytes @ 0xE0002000) -- CPU_WriteMem(4 bytes @ 0xE0002008) -- CPU_WriteMem(4 bytes @ 0xE000200C) -- CPU_WriteMem(4 bytes @ 0xE0002010) -- CPU_WriteMem(4 bytes @ 0xE0002014) -- CPU_WriteMem(4 bytes @ 0xE0002018) -- CPU_WriteMem(4 bytes @ 0xE000201C) (0009ms, 3091ms total)
T21E4 013:083 JLINK_IsHalted()  returns TRUE (0004ms, 3100ms total)
T21E4 013:087 JLINK_Halt()  returns 0x00 (0000ms, 3100ms total)
T21E4 013:087 JLINK_IsHalted()  returns TRUE (0000ms, 3100ms total)
T21E4 013:087 JLINK_IsHalted()  returns TRUE (0001ms, 3100ms total)
T21E4 013:088 JLINK_IsHalted()  returns TRUE (0000ms, 3100ms total)
T21E4 013:088 JLINK_ReadReg(R15)  returns 0x08003954 (0000ms, 3100ms total)
T21E4 013:088 JLINK_ReadReg(XPSR)  returns 0x01000000 (0000ms, 3100ms total)
T21E4 013:088 JLINK_ClrBPEx(BPHandle = 0x00000001)  returns 0x00 (0000ms, 3100ms total)
T21E4 013:088 JLINK_ClrBPEx(BPHandle = 0x00000002)  returns 0x00 (0001ms, 3100ms total)
T21E4 013:089 JLINK_ClrBPEx(BPHandle = 0x00000003)  returns 0x00 (0000ms, 3101ms total)
T21E4 013:089 JLINK_ClrBPEx(BPHandle = 0x00000004)  returns 0x00 (0000ms, 3101ms total)
T21E4 013:089 JLINK_ReadMemU32(0xE000ED30, 0x0001 Items, ...) -- CPU_ReadMem(4 bytes @ 0xE000ED30) -- Data:  03 00 00 00  returns 0x01 (0001ms, 3101ms total)
T21E4 013:090 JLINK_ReadMemU32(0xE0001028, 0x0001 Items, ...) -- CPU_ReadMem(4 bytes @ 0xE0001028) -- Data:  01 00 00 40  returns 0x01 (0001ms, 3102ms total)
T21E4 013:091 JLINK_ReadMemU32(0xE0001038, 0x0001 Items, ...) -- CPU_ReadMem(4 bytes @ 0xE0001038) -- Data:  01 00 00 40  returns 0x01 (0001ms, 3103ms total)
T21E4 013:092 JLINK_ReadMemU32(0xE0001048, 0x0001 Items, ...) -- CPU_ReadMem(4 bytes @ 0xE0001048) -- Data:  01 00 00 40  returns 0x01 (0001ms, 3104ms total)
T21E4 013:093 JLINK_ReadMemU32(0xE0001058, 0x0001 Items, ...) -- CPU_ReadMem(4 bytes @ 0xE0001058) -- Data:  01 00 00 40  returns 0x01 (0001ms, 3105ms total)
T1530 013:094 JLINK_ReadReg(R0)  returns 0x009F0000 (0000ms, 3106ms total)
T1530 013:094 JLINK_ReadReg(R1)  returns 0x40021000 (0001ms, 3106ms total)
T1530 013:095 JLINK_ReadReg(R2)  returns 0x00000000 (0000ms, 3107ms total)
T1530 013:095 JLINK_ReadReg(R3)  returns 0x40013800 (0000ms, 3107ms total)
T1530 013:095 JLINK_ReadReg(R4)  returns 0x00000000 (0000ms, 3107ms total)
T1530 013:095 JLINK_ReadReg(R5)  returns 0x00000000 (0000ms, 3107ms total)
T1530 013:095 JLINK_ReadReg(R6)  returns 0x00000000 (0000ms, 3107ms total)
T1530 013:096 JLINK_ReadReg(R7)  returns 0x00000000 (0000ms, 3108ms total)
T1530 013:096 JLINK_ReadReg(R8)  returns 0x00000000 (0000ms, 3108ms total)
T1530 013:096 JLINK_ReadReg(R9)  returns 0x00000000 (0000ms, 3108ms total)
T1530 013:096 JLINK_ReadReg(R10)  returns 0x00000000 (0000ms, 3108ms total)
T1530 013:096 JLINK_ReadReg(R11)  returns 0x00000000 (0000ms, 3108ms total)
T1530 013:096 JLINK_ReadReg(R12)  returns 0x00000400 (0001ms, 3108ms total)
T1530 013:097 JLINK_ReadReg(R13)  returns 0x20000560 (0000ms, 3109ms total)
T1530 013:097 JLINK_ReadReg(R14)  returns 0x08003A23 (0000ms, 3109ms total)
T1530 013:097 JLINK_ReadReg(R15)  returns 0x08003954 (0000ms, 3109ms total)
T1530 013:097 JLINK_ReadReg(XPSR)  returns 0x01000000 (0001ms, 3109ms total)
T1530 013:098 JLINK_ReadReg(MSP)  returns 0x20000560 (0000ms, 3110ms total)
T1530 013:098 JLINK_ReadReg(PSP)  returns 0xEA827340 (0000ms, 3110ms total)
T1530 013:098 JLINK_ReadReg(CFBP)  returns 0x00000000 (0000ms, 3110ms total)
T1530 013:099 JLINK_ReadMem (0x20000564, 0x0004 Bytes, ...) -- CPU_ReadMem(64 bytes @ 0x20000540) -- Updating C cache (64 bytes @ 0x20000540) -- Read from C cache (4 bytes @ 0x20000564) -- Data:  6D 3A 00 08  returns 0x00 (0001ms, 3110ms total)
T1530 013:100 JLINK_ReadMem (0x20000560, 0x0004 Bytes, ...) -- Read from C cache (4 bytes @ 0x20000560) -- Data:  00 00 00 00  returns 0x00 (0001ms, 3111ms total)
T1530 013:101 JLINK_ReadMem (0x2000056C, 0x0004 Bytes, ...) -- Read from C cache (4 bytes @ 0x2000056C) -- Data:  05 01 00 08  returns 0x00 (0000ms, 3112ms total)
T1530 013:101 JLINK_ReadMem (0x20000568, 0x0004 Bytes, ...) -- Read from C cache (4 bytes @ 0x20000568) -- Data:  00 00 00 00  returns 0x00 (0001ms, 3112ms total)
T1530 013:257 JLINK_WriteReg(R0, 0x009F0000)  returns 0x00 (0000ms, 3113ms total)
T1530 013:257 JLINK_WriteReg(R1, 0x40021000)  returns 0x00 (0000ms, 3113ms total)
T1530 013:257 JLINK_WriteReg(R2, 0x00000000)  returns 0x00 (0000ms, 3113ms total)
T1530 013:257 JLINK_WriteReg(R3, 0x40013800)  returns 0x00 (0000ms, 3113ms total)
T1530 013:257 JLINK_WriteReg(R4, 0x00000000)  returns 0x00 (0000ms, 3113ms total)
T1530 013:258 JLINK_WriteReg(R5, 0x00000000)  returns 0x00 (0000ms, 3114ms total)
T1530 013:258 JLINK_WriteReg(R6, 0x00000000)  returns 0x00 (0000ms, 3114ms total)
T1530 013:258 JLINK_WriteReg(R7, 0x00000000)  returns 0x00 (0000ms, 3114ms total)
T1530 013:258 JLINK_WriteReg(R8, 0x00000000)  returns 0x00 (0000ms, 3114ms total)
T1530 013:258 JLINK_WriteReg(R9, 0x00000000)  returns 0x00 (0000ms, 3114ms total)
T1530 013:258 JLINK_WriteReg(R10, 0x00000000)  returns 0x00 (0001ms, 3114ms total)
T1530 013:259 JLINK_WriteReg(R11, 0x00000000)  returns 0x00 (0000ms, 3115ms total)
T1530 013:259 JLINK_WriteReg(R12, 0x00000400)  returns 0x00 (0000ms, 3115ms total)
T1530 013:259 JLINK_WriteReg(R13, 0x20000560)  returns 0x00 (0000ms, 3115ms total)
T1530 013:259 JLINK_WriteReg(R14, 0x08003A23)  returns 0x00 (0000ms, 3115ms total)
T1530 013:259 JLINK_WriteReg(R15, 0x08003954)  returns 0x00 (0000ms, 3115ms total)
T1530 013:260 JLINK_WriteReg(XPSR, 0x01000000)  returns 0x00 (0000ms, 3116ms total)
T1530 013:260 JLINK_WriteReg(MSP, 0x20000560)  returns 0x00 (0000ms, 3116ms total)
T1530 013:260 JLINK_WriteReg(PSP, 0xEA827340)  returns 0x00 (0000ms, 3116ms total)
T1530 013:260 JLINK_WriteReg(CFBP, 0x00000000)  returns 0x00 (0000ms, 3116ms total)
T1530 013:260 JLINK_ReadReg(R0)  returns 0x009F0000 (0001ms, 3116ms total)
T1530 013:261 JLINK_ReadReg(R1)  returns 0x40021000 (0000ms, 3117ms total)
T1530 013:261 JLINK_ReadReg(R2)  returns 0x00000000 (0000ms, 3117ms total)
T1530 013:261 JLINK_ReadReg(R3)  returns 0x40013800 (0000ms, 3117ms total)
T1530 013:261 JLINK_ReadReg(R4)  returns 0x00000000 (0000ms, 3117ms total)
T1530 013:261 JLINK_ReadReg(R5)  returns 0x00000000 (0000ms, 3117ms total)
T1530 013:261 JLINK_ReadReg(R6)  returns 0x00000000 (0001ms, 3117ms total)
T1530 013:262 JLINK_ReadReg(R7)  returns 0x00000000 (0000ms, 3118ms total)
T1530 013:262 JLINK_ReadReg(R8)  returns 0x00000000 (0000ms, 3118ms total)
T1530 013:262 JLINK_ReadReg(R9)  returns 0x00000000 (0000ms, 3118ms total)
T1530 013:262 JLINK_ReadReg(R10)  returns 0x00000000 (0000ms, 3118ms total)
T1530 013:262 JLINK_ReadReg(R11)  returns 0x00000000 (0000ms, 3118ms total)
T1530 013:263 JLINK_ReadReg(R12)  returns 0x00000400 (0000ms, 3119ms total)
T1530 013:263 JLINK_ReadReg(R13)  returns 0x20000560 (0000ms, 3119ms total)
T1530 013:263 JLINK_ReadReg(R14)  returns 0x08003A23 (0000ms, 3119ms total)
T1530 013:263 JLINK_ReadReg(R15)  returns 0x08003954 (0000ms, 3119ms total)
T1530 013:263 JLINK_ReadReg(XPSR)  returns 0x01000000 (0000ms, 3119ms total)
T1530 013:263 JLINK_ReadReg(MSP)  returns 0x20000560 (0001ms, 3119ms total)
T1530 013:264 JLINK_ReadReg(PSP)  returns 0xEA827340 (0000ms, 3120ms total)
T1530 013:264 JLINK_ReadReg(CFBP)  returns 0x00000000 (0000ms, 3120ms total)
T1530 013:264 JLINK_ReadMemU32(0xE0001004, 0x0001 Items, ...) -- CPU_ReadMem(4 bytes @ 0xE0001004) -- Data:  01 00 00 40  returns 0x01 (0001ms, 3120ms total)
T1530 013:433 JLINK_ReadMem (0x08003954, 0x003C Bytes, ...) -- CPU_ReadMem(128 bytes @ 0x08003940) -- Updating C cache (128 bytes @ 0x08003940) -- Read from C cache (60 bytes @ 0x08003954) -- Data:  4F F0 00 01 08 46 6D 4A 12 68 42 F4 80 32 6B 4B ...  returns 0x00 (0002ms, 3121ms total)
T21E4 014:200 JLINK_Step() -- Read from C cache (2 bytes @ 0x08003954) -- Not simulated -- CPU_WriteMem(4 bytes @ 0xE0002008) -- CPU_WriteMem(4 bytes @ 0xE000200C) -- CPU_WriteMem(4 bytes @ 0xE0002010) -- CPU_WriteMem(4 bytes @ 0xE0002014) -- CPU_WriteMem(4 bytes @ 0xE0002018) -- CPU_WriteMem(4 bytes @ 0xE000201C)  returns 0x00 (0015ms, 3123ms total)
T21E4 014:215 JLINK_ReadReg(R15)  returns 0x08003958 (0000ms, 3138ms total)
T21E4 014:215 JLINK_ReadReg(XPSR)  returns 0x01000000 (0000ms, 3138ms total)
T21E4 014:215 JLINK_SetBPEx(Addr = 0x0800115C, Type = 0xFFFFFFF2)  returns 0x00000005 (0001ms, 3138ms total)
T21E4 014:216 JLINK_SetBPEx(Addr = 0x08003954, Type = 0xFFFFFFF2)  returns 0x00000006 (0000ms, 3139ms total)
T21E4 014:216 JLINK_SetBPEx(Addr = 0x0800397C, Type = 0xFFFFFFF2)  returns 0x00000007 (0000ms, 3139ms total)
T21E4 014:216 JLINK_SetBPEx(Addr = 0x0800016C, Type = 0xFFFFFFF2)  returns 0x00000008 (0000ms, 3139ms total)
T21E4 014:216 JLINK_Go() -- CPU_WriteMem(4 bytes @ 0xE0002008) -- CPU_WriteMem(4 bytes @ 0xE000200C) -- CPU_WriteMem(4 bytes @ 0xE0002010) -- CPU_WriteMem(4 bytes @ 0xE0002014) -- CPU_WriteMem(4 bytes @ 0xE0002018) -- CPU_WriteMem(4 bytes @ 0xE000201C) (0007ms, 3139ms total)
T21E4 014:323 JLINK_IsHalted()  returns TRUE (0004ms, 3146ms total)
T21E4 014:327 JLINK_Halt()  returns 0x00 (0000ms, 3146ms total)
T21E4 014:327 JLINK_IsHalted()  returns TRUE (0000ms, 3146ms total)
T21E4 014:327 JLINK_IsHalted()  returns TRUE (0001ms, 3146ms total)
T21E4 014:328 JLINK_IsHalted()  returns TRUE (0000ms, 3146ms total)
T21E4 014:328 JLINK_ReadReg(R15)  returns 0x0800397C (0000ms, 3146ms total)
T21E4 014:328 JLINK_ReadReg(XPSR)  returns 0x81000000 (0000ms, 3146ms total)
T21E4 014:328 JLINK_ClrBPEx(BPHandle = 0x00000005)  returns 0x00 (0001ms, 3146ms total)
T21E4 014:329 JLINK_ClrBPEx(BPHandle = 0x00000006)  returns 0x00 (0000ms, 3147ms total)
T21E4 014:329 JLINK_ClrBPEx(BPHandle = 0x00000007)  returns 0x00 (0000ms, 3147ms total)
T21E4 014:329 JLINK_ClrBPEx(BPHandle = 0x00000008)  returns 0x00 (0000ms, 3147ms total)
T21E4 014:329 JLINK_ReadMemU32(0xE000ED30, 0x0001 Items, ...) -- CPU_ReadMem(4 bytes @ 0xE000ED30) -- Data:  03 00 00 00  returns 0x01 (0002ms, 3147ms total)
T21E4 014:331 JLINK_ReadMemU32(0xE0001028, 0x0001 Items, ...) -- CPU_ReadMem(4 bytes @ 0xE0001028) -- Data:  01 00 00 40  returns 0x01 (0001ms, 3149ms total)
T21E4 014:332 JLINK_ReadMemU32(0xE0001038, 0x0001 Items, ...) -- CPU_ReadMem(4 bytes @ 0xE0001038) -- Data:  01 00 00 40  returns 0x01 (0001ms, 3150ms total)
T21E4 014:333 JLINK_ReadMemU32(0xE0001048, 0x0001 Items, ...) -- CPU_ReadMem(4 bytes @ 0xE0001048) -- Data:  01 00 00 40  returns 0x01 (0001ms, 3151ms total)
T21E4 014:334 JLINK_ReadMemU32(0xE0001058, 0x0001 Items, ...) -- CPU_ReadMem(4 bytes @ 0xE0001058) -- Data:  01 00 00 40  returns 0x01 (0001ms, 3152ms total)
T1530 014:335 JLINK_ReadReg(R0)  returns 0x00020000 (0000ms, 3153ms total)
T1530 014:335 JLINK_ReadReg(R1)  returns 0x0000021E (0001ms, 3153ms total)
T1530 014:336 JLINK_ReadReg(R2)  returns 0x00034A83 (0000ms, 3154ms total)
T1530 014:336 JLINK_ReadReg(R3)  returns 0x40021000 (0000ms, 3154ms total)
T1530 014:336 JLINK_ReadReg(R4)  returns 0x00000000 (0000ms, 3154ms total)
T1530 014:336 JLINK_ReadReg(R5)  returns 0x00000000 (0001ms, 3154ms total)
T1530 014:337 JLINK_ReadReg(R6)  returns 0x00000000 (0000ms, 3155ms total)
T1530 014:337 JLINK_ReadReg(R7)  returns 0x00000000 (0000ms, 3155ms total)
T1530 014:337 JLINK_ReadReg(R8)  returns 0x00000000 (0000ms, 3155ms total)
T1530 014:337 JLINK_ReadReg(R9)  returns 0x00000000 (0000ms, 3155ms total)
T1530 014:337 JLINK_ReadReg(R10)  returns 0x00000000 (0001ms, 3155ms total)
T1530 014:338 JLINK_ReadReg(R11)  returns 0x00000000 (0000ms, 3156ms total)
T1530 014:338 JLINK_ReadReg(R12)  returns 0x00000400 (0000ms, 3156ms total)
T1530 014:338 JLINK_ReadReg(R13)  returns 0x20000560 (0000ms, 3156ms total)
T1530 014:338 JLINK_ReadReg(R14)  returns 0x08003A23 (0001ms, 3156ms total)
T1530 014:339 JLINK_ReadReg(R15)  returns 0x0800397C (0000ms, 3157ms total)
T1530 014:339 JLINK_ReadReg(XPSR)  returns 0x81000000 (0000ms, 3157ms total)
T1530 014:339 JLINK_ReadReg(MSP)  returns 0x20000560 (0000ms, 3157ms total)
T1530 014:339 JLINK_ReadReg(PSP)  returns 0xEA827340 (0000ms, 3157ms total)
T1530 014:339 JLINK_ReadReg(CFBP)  returns 0x00000000 (0001ms, 3157ms total)
T1530 014:340 JLINK_ReadMem (0x20000564, 0x0004 Bytes, ...) -- CPU_ReadMem(64 bytes @ 0x20000540) -- Updating C cache (64 bytes @ 0x20000540) -- Read from C cache (4 bytes @ 0x20000564) -- Data:  6D 3A 00 08  returns 0x00 (0002ms, 3158ms total)
T1530 014:342 JLINK_ReadMem (0x20000560, 0x0004 Bytes, ...) -- Read from C cache (4 bytes @ 0x20000560) -- Data:  00 00 00 00  returns 0x00 (0001ms, 3160ms total)
T1530 014:343 JLINK_ReadMem (0x2000056C, 0x0004 Bytes, ...) -- Read from C cache (4 bytes @ 0x2000056C) -- Data:  05 01 00 08  returns 0x00 (0000ms, 3161ms total)
T1530 014:343 JLINK_ReadMem (0x20000568, 0x0004 Bytes, ...) -- Read from C cache (4 bytes @ 0x20000568) -- Data:  00 00 00 00  returns 0x00 (0001ms, 3161ms total)
T1530 014:502 JLINK_WriteReg(R0, 0x00020000)  returns 0x00 (0000ms, 3162ms total)
T1530 014:502 JLINK_WriteReg(R1, 0x0000021E)  returns 0x00 (0000ms, 3162ms total)
T1530 014:502 JLINK_WriteReg(R2, 0x00034A83)  returns 0x00 (0000ms, 3162ms total)
T1530 014:502 JLINK_WriteReg(R3, 0x40021000)  returns 0x00 (0000ms, 3162ms total)
T1530 014:502 JLINK_WriteReg(R4, 0x00000000)  returns 0x00 (0001ms, 3162ms total)
T1530 014:503 JLINK_WriteReg(R5, 0x00000000)  returns 0x00 (0000ms, 3163ms total)
T1530 014:503 JLINK_WriteReg(R6, 0x00000000)  returns 0x00 (0000ms, 3163ms total)
T1530 014:503 JLINK_WriteReg(R7, 0x00000000)  returns 0x00 (0000ms, 3163ms total)
T1530 014:503 JLINK_WriteReg(R8, 0x00000000)  returns 0x00 (0000ms, 3163ms total)
T1530 014:503 JLINK_WriteReg(R9, 0x00000000)  returns 0x00 (0001ms, 3163ms total)
T1530 014:504 JLINK_WriteReg(R10, 0x00000000)  returns 0x00 (0000ms, 3164ms total)
T1530 014:504 JLINK_WriteReg(R11, 0x00000000)  returns 0x00 (0000ms, 3164ms total)
T1530 014:504 JLINK_WriteReg(R12, 0x00000400)  returns 0x00 (0000ms, 3164ms total)
T1530 014:504 JLINK_WriteReg(R13, 0x20000560)  returns 0x00 (0000ms, 3164ms total)
T1530 014:504 JLINK_WriteReg(R14, 0x08003A23)  returns 0x00 (0001ms, 3164ms total)
T1530 014:505 JLINK_WriteReg(R15, 0x0800397C)  returns 0x00 (0000ms, 3165ms total)
T1530 014:505 JLINK_WriteReg(XPSR, 0x81000000)  returns 0x00 (0000ms, 3165ms total)
T1530 014:505 JLINK_WriteReg(MSP, 0x20000560)  returns 0x00 (0000ms, 3165ms total)
T1530 014:505 JLINK_WriteReg(PSP, 0xEA827340)  returns 0x00 (0000ms, 3165ms total)
T1530 014:505 JLINK_WriteReg(CFBP, 0x00000000)  returns 0x00 (0000ms, 3165ms total)
T1530 014:507 JLINK_ReadReg(R0)  returns 0x00020000 (0000ms, 3165ms total)
T1530 014:507 JLINK_ReadReg(R1)  returns 0x0000021E (0000ms, 3165ms total)
T1530 014:507 JLINK_ReadReg(R2)  returns 0x00034A83 (0000ms, 3165ms total)
T1530 014:507 JLINK_ReadReg(R3)  returns 0x40021000 (0000ms, 3165ms total)
T1530 014:507 JLINK_ReadReg(R4)  returns 0x00000000 (0001ms, 3165ms total)
T1530 014:508 JLINK_ReadReg(R5)  returns 0x00000000 (0000ms, 3166ms total)
T1530 014:508 JLINK_ReadReg(R6)  returns 0x00000000 (0000ms, 3166ms total)
T1530 014:508 JLINK_ReadReg(R7)  returns 0x00000000 (0000ms, 3166ms total)
T1530 014:508 JLINK_ReadReg(R8)  returns 0x00000000 (0000ms, 3166ms total)
T1530 014:508 JLINK_ReadReg(R9)  returns 0x00000000 (0000ms, 3166ms total)
T1530 014:508 JLINK_ReadReg(R10)  returns 0x00000000 (0001ms, 3166ms total)
T1530 014:509 JLINK_ReadReg(R11)  returns 0x00000000 (0000ms, 3167ms total)
T1530 014:509 JLINK_ReadReg(R12)  returns 0x00000400 (0000ms, 3167ms total)
T1530 014:509 JLINK_ReadReg(R13)  returns 0x20000560 (0000ms, 3167ms total)
T1530 014:509 JLINK_ReadReg(R14)  returns 0x08003A23 (0000ms, 3167ms total)
T1530 014:509 JLINK_ReadReg(R15)  returns 0x0800397C (0000ms, 3167ms total)
T1530 014:510 JLINK_ReadReg(XPSR)  returns 0x81000000 (0000ms, 3168ms total)
T1530 014:510 JLINK_ReadReg(MSP)  returns 0x20000560 (0000ms, 3168ms total)
T1530 014:510 JLINK_ReadReg(PSP)  returns 0xEA827340 (0000ms, 3168ms total)
T1530 014:510 JLINK_ReadReg(CFBP)  returns 0x00000000 (0000ms, 3168ms total)
T1530 014:510 JLINK_ReadMemU32(0xE0001004, 0x0001 Items, ...) -- CPU_ReadMem(4 bytes @ 0xE0001004) -- Data:  01 00 00 40  returns 0x01 (0002ms, 3168ms total)
T1530 014:520 JLINK_ReadMem (0x0800397C, 0x003C Bytes, ...) -- CPU_ReadMem(128 bytes @ 0x08003940) -- Updating C cache (128 bytes @ 0x08003940) -- Read from C cache (60 bytes @ 0x0800397C) -- Data:  64 4A 12 68 12 F4 00 3F 02 D0 4F F0 01 00 01 E0 ...  returns 0x00 (0002ms, 3170ms total)
T21E4 015:029 JLINK_Step() -- Read from C cache (2 bytes @ 0x0800397C) -- Not simulated -- CPU_WriteMem(4 bytes @ 0xE0002008) -- CPU_WriteMem(4 bytes @ 0xE000200C) -- CPU_WriteMem(4 bytes @ 0xE0002010) -- CPU_WriteMem(4 bytes @ 0xE0002014) -- CPU_WriteMem(4 bytes @ 0xE0002018) -- CPU_WriteMem(4 bytes @ 0xE000201C)  returns 0x00 (0013ms, 3172ms total)
T21E4 015:042 JLINK_ReadReg(R15)  returns 0x0800397E (0000ms, 3185ms total)
T21E4 015:042 JLINK_ReadReg(XPSR)  returns 0x81000000 (0000ms, 3185ms total)
T21E4 015:042 JLINK_SetBPEx(Addr = 0x0800115C, Type = 0xFFFFFFF2)  returns 0x00000009 (0001ms, 3185ms total)
T21E4 015:043 JLINK_SetBPEx(Addr = 0x08003954, Type = 0xFFFFFFF2)  returns 0x0000000A (0000ms, 3186ms total)
T21E4 015:043 JLINK_SetBPEx(Addr = 0x0800397C, Type = 0xFFFFFFF2)  returns 0x0000000B (0000ms, 3186ms total)
T21E4 015:043 JLINK_SetBPEx(Addr = 0x0800016C, Type = 0xFFFFFFF2)  returns 0x0000000C (0000ms, 3186ms total)
T21E4 015:043 JLINK_Go() -- CPU_WriteMem(4 bytes @ 0xE0002008) -- CPU_WriteMem(4 bytes @ 0xE000200C) -- CPU_WriteMem(4 bytes @ 0xE0002010) -- CPU_WriteMem(4 bytes @ 0xE0002014) -- CPU_WriteMem(4 bytes @ 0xE0002018) -- CPU_WriteMem(4 bytes @ 0xE000201C) (0008ms, 3186ms total)
T21E4 015:151 JLINK_IsHalted()  returns TRUE (0004ms, 3194ms total)
T21E4 015:155 JLINK_Halt()  returns 0x00 (0000ms, 3194ms total)
T21E4 015:155 JLINK_IsHalted()  returns TRUE (0000ms, 3194ms total)
T21E4 015:155 JLINK_IsHalted()  returns TRUE (0000ms, 3194ms total)
T21E4 015:156 JLINK_IsHalted()  returns TRUE (0000ms, 3194ms total)
T21E4 015:156 JLINK_ReadReg(R15)  returns 0x08003954 (0000ms, 3194ms total)
T21E4 015:156 JLINK_ReadReg(XPSR)  returns 0x61000000 (0000ms, 3194ms total)
T21E4 015:156 JLINK_ClrBPEx(BPHandle = 0x00000009)  returns 0x00 (0000ms, 3194ms total)
T21E4 015:156 JLINK_ClrBPEx(BPHandle = 0x0000000A)  returns 0x00 (0000ms, 3194ms total)
T21E4 015:156 JLINK_ClrBPEx(BPHandle = 0x0000000B)  returns 0x00 (0001ms, 3194ms total)
T21E4 015:157 JLINK_ClrBPEx(BPHandle = 0x0000000C)  returns 0x00 (0000ms, 3195ms total)
T21E4 015:157 JLINK_ReadMemU32(0xE000ED30, 0x0001 Items, ...) -- CPU_ReadMem(4 bytes @ 0xE000ED30) -- Data:  03 00 00 00  returns 0x01 (0001ms, 3195ms total)
T21E4 015:158 JLINK_ReadMemU32(0xE0001028, 0x0001 Items, ...) -- CPU_ReadMem(4 bytes @ 0xE0001028) -- Data:  01 00 00 40  returns 0x01 (0001ms, 3196ms total)
T21E4 015:159 JLINK_ReadMemU32(0xE0001038, 0x0001 Items, ...) -- CPU_ReadMem(4 bytes @ 0xE0001038) -- Data:  01 00 00 40  returns 0x01 (0001ms, 3197ms total)
T21E4 015:160 JLINK_ReadMemU32(0xE0001048, 0x0001 Items, ...) -- CPU_ReadMem(4 bytes @ 0xE0001048) -- Data:  01 00 00 40  returns 0x01 (0001ms, 3198ms total)
T21E4 015:161 JLINK_ReadMemU32(0xE0001058, 0x0001 Items, ...) -- CPU_ReadMem(4 bytes @ 0xE0001058) -- Data:  01 00 00 40  returns 0x01 (0001ms, 3199ms total)
T1530 015:162 JLINK_ReadReg(R0)  returns 0x009F0000 (0000ms, 3200ms total)
T1530 015:162 JLINK_ReadReg(R1)  returns 0x40021000 (0001ms, 3200ms total)
T1530 015:163 JLINK_ReadReg(R2)  returns 0x00000000 (0000ms, 3201ms total)
T1530 015:163 JLINK_ReadReg(R3)  returns 0x080043F1 (0000ms, 3201ms total)
T1530 015:163 JLINK_ReadReg(R4)  returns 0x08004B90 (0000ms, 3201ms total)
T1530 015:163 JLINK_ReadReg(R5)  returns 0x08004B90 (0000ms, 3201ms total)
T1530 015:163 JLINK_ReadReg(R6)  returns 0x00000000 (0000ms, 3201ms total)
T1530 015:164 JLINK_ReadReg(R7)  returns 0x00000000 (0000ms, 3202ms total)
T1530 015:164 JLINK_ReadReg(R8)  returns 0x00000000 (0000ms, 3202ms total)
T1530 015:164 JLINK_ReadReg(R9)  returns 0x00000000 (0000ms, 3202ms total)
T1530 015:164 JLINK_ReadReg(R10)  returns 0x00000000 (0000ms, 3202ms total)
T1530 015:164 JLINK_ReadReg(R11)  returns 0x00000000 (0000ms, 3202ms total)
T1530 015:164 JLINK_ReadReg(R12)  returns 0x00000400 (0001ms, 3202ms total)
T1530 015:165 JLINK_ReadReg(R13)  returns 0x20000560 (0000ms, 3203ms total)
T1530 015:165 JLINK_ReadReg(R14)  returns 0x08003A23 (0000ms, 3203ms total)
T1530 015:165 JLINK_ReadReg(R15)  returns 0x08003954 (0000ms, 3203ms total)
T1530 015:165 JLINK_ReadReg(XPSR)  returns 0x61000000 (0000ms, 3203ms total)
T1530 015:166 JLINK_ReadReg(MSP)  returns 0x20000560 (0000ms, 3204ms total)
T1530 015:166 JLINK_ReadReg(PSP)  returns 0xEA827340 (0000ms, 3204ms total)
T1530 015:166 JLINK_ReadReg(CFBP)  returns 0x00000000 (0000ms, 3204ms total)
T1530 015:167 JLINK_ReadMem (0x20000564, 0x0004 Bytes, ...) -- CPU_ReadMem(64 bytes @ 0x20000540) -- Updating C cache (64 bytes @ 0x20000540) -- Read from C cache (4 bytes @ 0x20000564) -- Data:  6D 3A 00 08  returns 0x00 (0001ms, 3204ms total)
T1530 015:168 JLINK_ReadMem (0x20000560, 0x0004 Bytes, ...) -- Read from C cache (4 bytes @ 0x20000560) -- Data:  90 4B 00 08  returns 0x00 (0001ms, 3205ms total)
T1530 015:169 JLINK_ReadMem (0x2000056C, 0x0004 Bytes, ...) -- Read from C cache (4 bytes @ 0x2000056C) -- Data:  35 01 00 08  returns 0x00 (0000ms, 3206ms total)
T1530 015:169 JLINK_ReadMem (0x20000568, 0x0004 Bytes, ...) -- Read from C cache (4 bytes @ 0x20000568) -- Data:  90 4B 00 08  returns 0x00 (0000ms, 3206ms total)
T1530 015:170 JLINK_WriteReg(R0, 0x009F0000)  returns 0x00 (0000ms, 3207ms total)
T1530 015:170 JLINK_WriteReg(R1, 0x40021000)  returns 0x00 (0000ms, 3207ms total)
T1530 015:170 JLINK_WriteReg(R2, 0x00000000)  returns 0x00 (0000ms, 3207ms total)
T1530 015:170 JLINK_WriteReg(R3, 0x080043F1)  returns 0x00 (0001ms, 3207ms total)
T1530 015:171 JLINK_WriteReg(R4, 0x08004B90)  returns 0x00 (0000ms, 3208ms total)
T1530 015:171 JLINK_WriteReg(R5, 0x08004B90)  returns 0x00 (0000ms, 3208ms total)
T1530 015:171 JLINK_WriteReg(R6, 0x00000000)  returns 0x00 (0000ms, 3208ms total)
T1530 015:171 JLINK_WriteReg(R7, 0x00000000)  returns 0x00 (0000ms, 3208ms total)
T1530 015:171 JLINK_WriteReg(R8, 0x00000000)  returns 0x00 (0000ms, 3208ms total)
T1530 015:172 JLINK_WriteReg(R9, 0x00000000)  returns 0x00 (0000ms, 3209ms total)
T1530 015:172 JLINK_WriteReg(R10, 0x00000000)  returns 0x00 (0000ms, 3209ms total)
T1530 015:172 JLINK_WriteReg(R11, 0x00000000)  returns 0x00 (0000ms, 3209ms total)
T1530 015:172 JLINK_WriteReg(R12, 0x00000400)  returns 0x00 (0000ms, 3209ms total)
T1530 015:172 JLINK_WriteReg(R13, 0x20000560)  returns 0x00 (0000ms, 3209ms total)
T1530 015:172 JLINK_WriteReg(R14, 0x08003A23)  returns 0x00 (0001ms, 3209ms total)
T1530 015:173 JLINK_WriteReg(R15, 0x08003954)  returns 0x00 (0000ms, 3210ms total)
T1530 015:173 JLINK_WriteReg(XPSR, 0x61000000)  returns 0x00 (0000ms, 3210ms total)
T1530 015:173 JLINK_WriteReg(MSP, 0x20000560)  returns 0x00 (0000ms, 3210ms total)
T1530 015:173 JLINK_WriteReg(PSP, 0xEA827340)  returns 0x00 (0000ms, 3210ms total)
T1530 015:174 JLINK_WriteReg(CFBP, 0x00000000)  returns 0x00 (0000ms, 3211ms total)
T1530 015:175 JLINK_ReadReg(R0)  returns 0x009F0000 (0000ms, 3211ms total)
T1530 015:175 JLINK_ReadReg(R1)  returns 0x40021000 (0000ms, 3211ms total)
T1530 015:175 JLINK_ReadReg(R2)  returns 0x00000000 (0000ms, 3211ms total)
T1530 015:175 JLINK_ReadReg(R3)  returns 0x080043F1 (0000ms, 3211ms total)
T1530 015:175 JLINK_ReadReg(R4)  returns 0x08004B90 (0001ms, 3211ms total)
T1530 015:176 JLINK_ReadReg(R5)  returns 0x08004B90 (0000ms, 3212ms total)
T1530 015:176 JLINK_ReadReg(R6)  returns 0x00000000 (0000ms, 3212ms total)
T1530 015:176 JLINK_ReadReg(R7)  returns 0x00000000 (0000ms, 3212ms total)
T1530 015:176 JLINK_ReadReg(R8)  returns 0x00000000 (0000ms, 3212ms total)
T1530 015:176 JLINK_ReadReg(R9)  returns 0x00000000 (0000ms, 3212ms total)
T1530 015:177 JLINK_ReadReg(R10)  returns 0x00000000 (0000ms, 3213ms total)
T1530 015:177 JLINK_ReadReg(R11)  returns 0x00000000 (0000ms, 3213ms total)
T1530 015:177 JLINK_ReadReg(R12)  returns 0x00000400 (0000ms, 3213ms total)
T1530 015:177 JLINK_ReadReg(R13)  returns 0x20000560 (0000ms, 3213ms total)
T1530 015:177 JLINK_ReadReg(R14)  returns 0x08003A23 (0000ms, 3213ms total)
T1530 015:178 JLINK_ReadReg(R15)  returns 0x08003954 (0000ms, 3213ms total)
T1530 015:178 JLINK_ReadReg(XPSR)  returns 0x61000000 (0000ms, 3213ms total)
T1530 015:178 JLINK_ReadReg(MSP)  returns 0x20000560 (0000ms, 3213ms total)
T1530 015:178 JLINK_ReadReg(PSP)  returns 0xEA827340 (0000ms, 3213ms total)
T1530 015:178 JLINK_ReadReg(CFBP)  returns 0x00000000 (0000ms, 3213ms total)
T1530 015:178 JLINK_ReadMemU32(0xE0001004, 0x0001 Items, ...) -- CPU_ReadMem(4 bytes @ 0xE0001004) -- Data:  01 00 00 40  returns 0x01 (0002ms, 3213ms total)
T1530 015:185 JLINK_ReadMem (0x08003954, 0x003C Bytes, ...) -- CPU_ReadMem(128 bytes @ 0x08003940) -- Updating C cache (128 bytes @ 0x08003940) -- Read from C cache (60 bytes @ 0x08003954) -- Data:  4F F0 00 01 08 46 6D 4A 12 68 42 F4 80 32 6B 4B ...  returns 0x00 (0002ms, 3215ms total)
T21E4 015:795 JLINK_Step() -- Read from C cache (2 bytes @ 0x08003954) -- Not simulated -- CPU_WriteMem(4 bytes @ 0xE0002008) -- CPU_WriteMem(4 bytes @ 0xE000200C) -- CPU_WriteMem(4 bytes @ 0xE0002010) -- CPU_WriteMem(4 bytes @ 0xE0002014) -- CPU_WriteMem(4 bytes @ 0xE0002018) -- CPU_WriteMem(4 bytes @ 0xE000201C)  returns 0x00 (0014ms, 3217ms total)
T21E4 015:809 JLINK_ReadReg(R15)  returns 0x08003958 (0000ms, 3231ms total)
T21E4 015:809 JLINK_ReadReg(XPSR)  returns 0x61000000 (0000ms, 3231ms total)
T21E4 015:809 JLINK_SetBPEx(Addr = 0x0800115C, Type = 0xFFFFFFF2)  returns 0x0000000D (0001ms, 3231ms total)
T21E4 015:810 JLINK_SetBPEx(Addr = 0x08003954, Type = 0xFFFFFFF2)  returns 0x0000000E (0000ms, 3232ms total)
T21E4 015:810 JLINK_SetBPEx(Addr = 0x0800397C, Type = 0xFFFFFFF2)  returns 0x0000000F (0000ms, 3232ms total)
T21E4 015:810 JLINK_SetBPEx(Addr = 0x0800016C, Type = 0xFFFFFFF2)  returns 0x00000010 (0000ms, 3232ms total)
T21E4 015:810 JLINK_Go() -- CPU_WriteMem(4 bytes @ 0xE0002008) -- CPU_WriteMem(4 bytes @ 0xE000200C) -- CPU_WriteMem(4 bytes @ 0xE0002010) -- CPU_WriteMem(4 bytes @ 0xE0002014) -- CPU_WriteMem(4 bytes @ 0xE0002018) -- CPU_WriteMem(4 bytes @ 0xE000201C) (0007ms, 3232ms total)
T21E4 015:917 JLINK_IsHalted()  returns TRUE (0004ms, 3239ms total)
T21E4 015:921 JLINK_Halt()  returns 0x00 (0000ms, 3239ms total)
T21E4 015:921 JLINK_IsHalted()  returns TRUE (0000ms, 3239ms total)
T21E4 015:921 JLINK_IsHalted()  returns TRUE (0001ms, 3239ms total)
T21E4 015:922 JLINK_IsHalted()  returns TRUE (0000ms, 3239ms total)
T21E4 015:922 JLINK_ReadReg(R15)  returns 0x0800397C (0000ms, 3239ms total)
T21E4 015:922 JLINK_ReadReg(XPSR)  returns 0x81000000 (0000ms, 3239ms total)
T21E4 015:922 JLINK_ClrBPEx(BPHandle = 0x0000000D)  returns 0x00 (0001ms, 3239ms total)
T21E4 015:923 JLINK_ClrBPEx(BPHandle = 0x0000000E)  returns 0x00 (0000ms, 3240ms total)
T21E4 015:923 JLINK_ClrBPEx(BPHandle = 0x0000000F)  returns 0x00 (0000ms, 3240ms total)
T21E4 015:923 JLINK_ClrBPEx(BPHandle = 0x00000010)  returns 0x00 (0000ms, 3240ms total)
T21E4 015:923 JLINK_ReadMemU32(0xE000ED30, 0x0001 Items, ...) -- CPU_ReadMem(4 bytes @ 0xE000ED30) -- Data:  03 00 00 00  returns 0x01 (0002ms, 3240ms total)
T21E4 015:925 JLINK_ReadMemU32(0xE0001028, 0x0001 Items, ...) -- CPU_ReadMem(4 bytes @ 0xE0001028) -- Data:  01 00 00 40  returns 0x01 (0001ms, 3242ms total)
T21E4 015:926 JLINK_ReadMemU32(0xE0001038, 0x0001 Items, ...) -- CPU_ReadMem(4 bytes @ 0xE0001038) -- Data:  01 00 00 40  returns 0x01 (0001ms, 3243ms total)
T21E4 015:927 JLINK_ReadMemU32(0xE0001048, 0x0001 Items, ...) -- CPU_ReadMem(4 bytes @ 0xE0001048) -- Data:  01 00 00 40  returns 0x01 (0001ms, 3244ms total)
T21E4 015:928 JLINK_ReadMemU32(0xE0001058, 0x0001 Items, ...) -- CPU_ReadMem(4 bytes @ 0xE0001058) -- Data:  01 00 00 40  returns 0x01 (0001ms, 3245ms total)
T1530 015:929 JLINK_ReadReg(R0)  returns 0x00020000 (0000ms, 3246ms total)
T1530 015:929 JLINK_ReadReg(R1)  returns 0x0000011A (0001ms, 3246ms total)
T1530 015:930 JLINK_ReadReg(R2)  returns 0x00034A83 (0000ms, 3247ms total)
T1530 015:930 JLINK_ReadReg(R3)  returns 0x40021000 (0000ms, 3247ms total)
T1530 015:930 JLINK_ReadReg(R4)  returns 0x08004B90 (0000ms, 3247ms total)
T1530 015:930 JLINK_ReadReg(R5)  returns 0x08004B90 (0000ms, 3247ms total)
T1530 015:930 JLINK_ReadReg(R6)  returns 0x00000000 (0001ms, 3247ms total)
T1530 015:931 JLINK_ReadReg(R7)  returns 0x00000000 (0000ms, 3248ms total)
T1530 015:931 JLINK_ReadReg(R8)  returns 0x00000000 (0000ms, 3248ms total)
T1530 015:931 JLINK_ReadReg(R9)  returns 0x00000000 (0000ms, 3248ms total)
T1530 015:931 JLINK_ReadReg(R10)  returns 0x00000000 (0000ms, 3248ms total)
T1530 015:931 JLINK_ReadReg(R11)  returns 0x00000000 (0000ms, 3248ms total)
T1530 015:931 JLINK_ReadReg(R12)  returns 0x00000400 (0001ms, 3248ms total)
T1530 015:932 JLINK_ReadReg(R13)  returns 0x20000560 (0000ms, 3249ms total)
T1530 015:932 JLINK_ReadReg(R14)  returns 0x08003A23 (0000ms, 3249ms total)
T1530 015:932 JLINK_ReadReg(R15)  returns 0x0800397C (0000ms, 3249ms total)
T1530 015:932 JLINK_ReadReg(XPSR)  returns 0x81000000 (0000ms, 3249ms total)
T1530 015:932 JLINK_ReadReg(MSP)  returns 0x20000560 (0000ms, 3249ms total)
T1530 015:933 JLINK_ReadReg(PSP)  returns 0xEA827340 (0000ms, 3250ms total)
T1530 015:933 JLINK_ReadReg(CFBP)  returns 0x00000000 (0000ms, 3250ms total)
T1530 015:933 JLINK_ReadMem (0x20000564, 0x0004 Bytes, ...) -- CPU_ReadMem(64 bytes @ 0x20000540) -- Updating C cache (64 bytes @ 0x20000540) -- Read from C cache (4 bytes @ 0x20000564) -- Data:  6D 3A 00 08  returns 0x00 (0002ms, 3250ms total)
T1530 015:935 JLINK_ReadMem (0x20000560, 0x0004 Bytes, ...) -- Read from C cache (4 bytes @ 0x20000560) -- Data:  90 4B 00 08  returns 0x00 (0001ms, 3252ms total)
T1530 015:936 JLINK_ReadMem (0x2000056C, 0x0004 Bytes, ...) -- Read from C cache (4 bytes @ 0x2000056C) -- Data:  35 01 00 08  returns 0x00 (0001ms, 3253ms total)
T1530 015:937 JLINK_ReadMem (0x20000568, 0x0004 Bytes, ...) -- Read from C cache (4 bytes @ 0x20000568) -- Data:  90 4B 00 08  returns 0x00 (0000ms, 3254ms total)
T1530 015:938 JLINK_WriteReg(R0, 0x00020000)  returns 0x00 (0000ms, 3254ms total)
T1530 015:938 JLINK_WriteReg(R1, 0x0000011A)  returns 0x00 (0000ms, 3254ms total)
T1530 015:938 JLINK_WriteReg(R2, 0x00034A83)  returns 0x00 (0000ms, 3254ms total)
T1530 015:938 JLINK_WriteReg(R3, 0x40021000)  returns 0x00 (0000ms, 3254ms total)
T1530 015:938 JLINK_WriteReg(R4, 0x08004B90)  returns 0x00 (0001ms, 3254ms total)
T1530 015:939 JLINK_WriteReg(R5, 0x08004B90)  returns 0x00 (0000ms, 3255ms total)
T1530 015:939 JLINK_WriteReg(R6, 0x00000000)  returns 0x00 (0000ms, 3255ms total)
T1530 015:939 JLINK_WriteReg(R7, 0x00000000)  returns 0x00 (0000ms, 3255ms total)
T1530 015:939 JLINK_WriteReg(R8, 0x00000000)  returns 0x00 (0001ms, 3255ms total)
